
T07F4 000:046 SEGGER J-Link V6.10i Log File (0000ms, 0026ms total)
T07F4 000:046 DLL Compiled: Oct 25 2016 19:31:51 (0000ms, 0026ms total)
T07F4 000:046 Logging started @ 2023-03-10 21:15 (0000ms, 0026ms total)
T07F4 000:046 JLINK_SetWarnOutHandler(...) (0001ms, 0027ms total)
T07F4 000:047 JLINK_OpenEx(...)
Firmware: J-Link ARM V8 compiled Jan 31 2018 18:34:52
Hardware: V8.00
S/N: 20080643
Feature(s): RDI,FlashDL,FlashBP,JFlash,GDBFullWEBSRV Webserver running on local port 19080 (0010ms, 0037ms total)
T07F4 000:047   returns O.K. (0010ms, 0037ms total)
T07F4 000:057 JLINK_SetErrorOutHandler(...) (0000ms, 0037ms total)
T07F4 000:057 JLINK_ExecCommand("ProjectFile = "C:\Users\MR.ZHOU\Desktop\DAP_OFFLINE\F4\F4_LED\MDK-ARM\JLinkSettings.ini"", ...).   returns 0x00 (0087ms, 0124ms total)
T07F4 000:146 JLINK_ExecCommand("Device = STM32F407VGTx", ...). Device "STM32F407VG" selected.  returns 0x00 (0002ms, 0126ms total)
T07F4 000:148 JLINK_ExecCommand("DisableConnectionTimeout", ...).   returns 0x01 (0000ms, 0126ms total)
T07F4 000:148 JLINK_GetHardwareVersion()  returns 0x13880 (0000ms, 0126ms total)
T07F4 000:148 JLINK_GetDLLVersion()  returns 61009 (0000ms, 0126ms total)
T07F4 000:148 JLINK_GetFirmwareString(...) (0000ms, 0126ms total)
T07F4 000:154 JLINK_GetDLLVersion()  returns 61009 (0000ms, 0126ms total)
T07F4 000:154 JLINK_GetCompileDateTime() (0000ms, 0126ms total)
T07F4 000:156 JLINK_GetFirmwareString(...) (0000ms, 0126ms total)
T07F4 000:158 JLINK_GetHardwareVersion()  returns 0x13880 (0000ms, 0126ms total)
T07F4 000:165 JLINK_TIF_Select(JLINKARM_TIF_SWD)  returns 0x00 (0002ms, 0128ms total)
T07F4 000:167 JLINK_SetSpeed(5000) (0001ms, 0129ms total)
T07F4 000:168 JLINK_GetId() >0x108 TIF>Found SWD-DP with ID 0x2BA01477 >0x0D TIF> >0x28 TIF> >0x0D TIF> >0x28 TIF> >0x0D TIF> >0x28 TIF> >0x0D TIF> >0x28 TIF> >0x0D TIF> >0x21 TIF> >0x0D TIF> >0x28 TIF> >0x0D TIF> >0x28 TIF> >0x0D TIF> >0x28 TIF> >0x0D TIF> >0x21 TIF> >0x0D TIF> >0x21 TIF> >0x0D TIF> >0x28 TIF> >0x0D TIF> >0x21 TIF> >0x0D TIF> >0x21 TIF> >0x0D TIF> >0x28 TIF> >0x0D TIF> >0x21 TIF> >0x0D TIF> >0x21 TIF> >0x0D TIF> >0x28 TIF> >0x0D TIF> >0x21 TIF> >0x0D TIF> >0x21 TIF> >0x0D TIF>
 >0x28 TIF> >0x0D TIF> >0x21 TIF> >0x0D TIF> >0x21 TIF> >0x0D TIF> >0x28 TIF> >0x0D TIF> >0x21 TIF> >0x0D TIF> >0x21 TIF> >0x108 TIF>Found SWD-DP with ID 0x2BA01477 >0x0D TIF> >0x28 TIF> >0x0D TIF> >0x28 TIF> >0x0D TIF> >0x28 TIF> >0x0D TIF> >0x28 TIF> >0x0D TIF> >0x21 TIF> >0x0D TIF> >0x28 TIF> >0x0D TIF> >0x28 TIF> >0x0D TIF> >0x21 TIF> >0x0D TIF> >0x21 TIF> >0x0D TIF> >0x21 TIF>AP-IDR: 0x24770011, Type: AHB-AP >0x0D TIF> >0x28 TIF> >0x0D TIF> >0x28 TIF> >0x0D TIF> >0x28 TIF> >0x0D TIF> >0x21 TIF>
 >0x0D TIF> >0x21 TIF> >0x0D TIF> >0x28 TIF> >0x0D TIF> >0x21 TIF> >0x0D TIF> >0x21 TIF>Found Cortex-M4 r0p1, Little endian. >0x0D TIF> >0x28 TIF> -- CPU_ReadMem(4 bytes @ 0xE000EDF0) -- CPU_WriteMem(4 bytes @ 0xE000EDF0) -- CPU_ReadMem(4 bytes @ 0xE0002000)FPUnit: 6 code (BP) slots and 2 literal slots -- CPU_ReadMem(4 bytes @ 0xE000EDFC) -- CPU_WriteMem(4 bytes @ 0xE000EDFC) -- CPU_ReadMem(4 bytes @ 0xE0001000) -- CPU_WriteMem(4 bytes @ 0xE0001000) -- CPU_ReadMem(4 bytes @ 0xE000ED88)
 -- CPU_WriteMem(4 bytes @ 0xE000ED88) -- CPU_ReadMem(4 bytes @ 0xE000ED88) -- CPU_WriteMem(4 bytes @ 0xE000ED88)CoreSight components:ROMTbl 0 @ E00FF000 -- CPU_ReadMem(16 bytes @ 0xE00FF000) -- CPU_ReadMem(16 bytes @ 0xE000EFF0) -- CPU_ReadMem(16 bytes @ 0xE000EFE0)ROMTbl 0 [0]: FFF0F000, CID: B105E00D, PID: 000BB00C SCS -- CPU_ReadMem(16 bytes @ 0xE0001FF0) -- CPU_ReadMem(16 bytes @ 0xE0001FE0)ROMTbl 0 [1]: FFF02000, CID: B105E00D, PID: 003BB002 DWT -- CPU_ReadMem(16 bytes @ 0xE0002FF0)
 -- CPU_ReadMem(16 bytes @ 0xE0002FE0)ROMTbl 0 [2]: FFF03000, CID: B105E00D, PID: 002BB003 FPB -- CPU_ReadMem(16 bytes @ 0xE0000FF0) -- CPU_ReadMem(16 bytes @ 0xE0000FE0)ROMTbl 0 [3]: FFF01000, CID: B105E00D, PID: 003BB001 ITM -- CPU_ReadMem(16 bytes @ 0xE00FF010) -- CPU_ReadMem(16 bytes @ 0xE0040FF0) -- CPU_ReadMem(16 bytes @ 0xE0040FE0)ROMTbl 0 [4]: FFF41000, CID: B105900D, PID: 000BB9A1 TPIU -- CPU_ReadMem(16 bytes @ 0xE0041FF0) -- CPU_ReadMem(16 bytes @ 0xE0041FE0)
ROMTbl 0 [5]: FFF42000, CID: B105900D, PID: 000BB925 ETM >0x0D TIF> >0x21 TIF>  returns 0x2BA01477 (0072ms, 0201ms total)
T07F4 000:240 JLINK_GetDLLVersion()  returns 61009 (0000ms, 0201ms total)
T07F4 000:240 JLINK_CORE_GetFound()  returns 0xE0000FF (0000ms, 0201ms total)
T07F4 000:240 JLINK_GetDebugInfo(0x100) -- Value=0xE00FF000  returns 0x00 (0000ms, 0201ms total)
T07F4 000:244 JLINK_GetDebugInfo(0x100) -- Value=0xE00FF000  returns 0x00 (0000ms, 0201ms total)
T07F4 000:244 JLINK_GetDebugInfo(0x101) -- Value=0xE0041000  returns 0x00 (0000ms, 0201ms total)
T07F4 000:244 JLINK_GetDebugInfo(0x102) -- Value=0x00000000  returns 0x00 (0000ms, 0201ms total)
T07F4 000:244 JLINK_GetDebugInfo(0x103) -- Value=0xE0040000  returns 0x00 (0000ms, 0201ms total)
T07F4 000:244 JLINK_GetDebugInfo(0x104) -- Value=0xE0000000  returns 0x00 (0000ms, 0201ms total)
T07F4 000:244 JLINK_GetDebugInfo(0x105) -- Value=0xE0001000  returns 0x00 (0000ms, 0201ms total)
T07F4 000:244 JLINK_GetDebugInfo(0x106) -- Value=0xE0002000  returns 0x00 (0000ms, 0201ms total)
T07F4 000:244 JLINK_GetDebugInfo(0x107) -- Value=0xE000E000  returns 0x00 (0000ms, 0201ms total)
T07F4 000:244 JLINK_GetDebugInfo(0x10C) -- Value=0xE000EDF0  returns 0x00 (0000ms, 0201ms total)
T07F4 000:244 JLINK_ReadMemU32(0xE000EF40, 0x0001 Items, ...) -- CPU is running -- CPU_ReadMem(4 bytes @ 0xE000EF40) - Data: 21 00 11 10  returns 0x01 (0000ms, 0201ms total)
T07F4 000:244 JLINK_ReadMemU32(0xE000EF44, 0x0001 Items, ...) -- CPU is running -- CPU_ReadMem(4 bytes @ 0xE000EF44) - Data: 11 00 00 11  returns 0x01 (0000ms, 0201ms total)
T07F4 000:244 JLINK_ReadMemU32(0xE000ED00, 0x0001 Items, ...) -- CPU is running -- CPU_ReadMem(4 bytes @ 0xE000ED00) - Data: 41 C2 0F 41  returns 0x01 (0001ms, 0202ms total)
T07F4 000:245 JLINK_SetResetType(JLINKARM_RESET_TYPE_BP0)  returns JLINKARM_RESET_TYPE_NORMAL (0000ms, 0202ms total)
T07F4 000:245 JLINK_Reset()T-bit of XPSR is 0 but should be 1. Changed to 1. -- CPU_WriteMem(4 bytes @ 0xE0002000) -- CPU_ReadMem(4 bytes @ 0xE000EDFC) -- CPU_WriteMem(4 bytes @ 0xE000EDFC) -- CPU_ReadMem(4 bytes @ 0xE0001000) -- CPU_WriteMem(4 bytes @ 0xE0001000) (0178ms, 0380ms total)
T07F4 000:423 JLINK_Halt()  returns 0x00 (0000ms, 0380ms total)
T07F4 000:423 JLINK_IsHalted() -- CPU_ReadMem(4 bytes @ 0x00000004)  returns TRUE (0001ms, 0381ms total)
T07F4 000:424 JLINK_ReadMemU32(0xE000EDF0, 0x0001 Items, ...) -- CPU_ReadMem(4 bytes @ 0xE000EDF0)  returns 0xFFFFFFFF (0001ms, 0381ms total)
T07F4 000:425 JLINK_WriteU32(0xE000EDF0, 0xA05F0023) -- CPU_WriteMem(4 bytes @ 0xE000EDF0)  returns 0x00 (0000ms, 0381ms total)
T07F4 000:425 JLINK_WriteU32(0xE000EDFC, 0x01000000) -- CPU_WriteMem(4 bytes @ 0xE000EDFC)  returns 0x00 (0000ms, 0381ms total)
T07F4 000:433 JLINK_GetHWStatus(...)  returns 0x00 (0000ms, 0381ms total)
T07F4 000:438 JLINK_GetNumBPUnits(Type = 0xFFFFFF00)  returns 0x06 (0000ms, 0381ms total)
T07F4 000:438 JLINK_GetNumBPUnits(Type = 0xF0)  returns 0x2000 (0000ms, 0381ms total)
T07F4 000:438 JLINK_GetNumWPUnits()  returns 0x04 (0000ms, 0381ms total)
T07F4 000:444 JLINK_GetSpeed()  returns 0xFA0 (0000ms, 0381ms total)
T07F4 000:447 JLINK_ReadMemU32(0xE000E004, 0x0001 Items, ...) -- CPU_ReadMem(4 bytes @ 0xE000E004)  returns 0xFFFFFFFF (0001ms, 0382ms total)
T07F4 000:448 JLINK_ReadMemU32(0xE000E004, 0x0001 Items, ...) -- CPU_ReadMem(4 bytes @ 0xE000E004)  returns 0xFFFFFFFF (0002ms, 0384ms total)
T07F4 000:450 JLINK_WriteMem(0xE0001000, 0x001C Bytes, ...) - Data: 01 00 00 00 00 00 00 00 00 00 00 00 00 00 00 00 ... -- CPU_WriteMem(28 bytes @ 0xE0001000)  returns 0x1C (0001ms, 0385ms total)
T07F4 000:451 JLINK_ReadMem (0xE0001000, 0x001C Bytes, ...) -- CPU_ReadMem(28 bytes @ 0xE0001000) - Data: AA AA AA AA AA AA AA AA AA AA AA AA AA AA AA AA ...  returns 0x01 (0001ms, 0386ms total)
T07F4 000:452 JLINK_Halt()  returns 0x00 (0000ms, 0386ms total)
T07F4 000:452 JLINK_IsHalted() -- CPU_ReadMem(4 bytes @ 0x00000004)  returns TRUE (0001ms, 0387ms total)
T07F4 000:455 JLINK_WriteMem(0x20000000, 0x0180 Bytes, ...) - Data: 00 BE 0A E0 0D 78 2D 06 68 40 08 24 40 00 00 D3 ... -- CPU_WriteMem(384 bytes @ 0x20000000)  returns 0x180 (0004ms, 0390ms total)
T07F4 000:459 JLINK_WriteReg(R0, 0x08000000)  returns 0x00 (0000ms, 0390ms total)
T07F4 000:459 JLINK_WriteReg(R1, 0x017D7840)  returns 0x00 (0000ms, 0390ms total)
T07F4 000:459 JLINK_WriteReg(R2, 0x00000001)  returns 0x00 (0000ms, 0390ms total)
T07F4 000:459 JLINK_WriteReg(R3, 0x00000000)  returns 0x00 (0000ms, 0390ms total)
T07F4 000:459 JLINK_WriteReg(R4, 0x00000000)  returns 0x00 (0000ms, 0390ms total)
T07F4 000:459 JLINK_WriteReg(R5, 0x00000000)  returns 0x00 (0000ms, 0390ms total)
T07F4 000:459 JLINK_WriteReg(R6, 0x00000000)  returns 0x00 (0000ms, 0390ms total)
T07F4 000:459 JLINK_WriteReg(R7, 0x00000000)  returns 0x00 (0000ms, 0390ms total)
T07F4 000:459 JLINK_WriteReg(R8, 0x00000000)  returns 0x00 (0000ms, 0390ms total)
T07F4 000:459 JLINK_WriteReg(R9, 0x2000017C)  returns 0x00 (0000ms, 0390ms total)
T07F4 000:459 JLINK_WriteReg(R10, 0x00000000)  returns 0x00 (0000ms, 0390ms total)
T07F4 000:459 JLINK_WriteReg(R11, 0x00000000)  returns 0x00 (0000ms, 0390ms total)
T07F4 000:459 JLINK_WriteReg(R12, 0x00000000)  returns 0x00 (0000ms, 0390ms total)
T07F4 000:459 JLINK_WriteReg(R13 (SP), 0x20001000)  returns 0x00 (0000ms, 0390ms total)
T07F4 000:459 JLINK_WriteReg(R14, 0x20000001)  returns 0x00 (0000ms, 0390ms total)
T07F4 000:459 JLINK_WriteReg(R15 (PC), 0x20000054)  returns 0x00 (0000ms, 0390ms total)
T07F4 000:459 JLINK_WriteReg(XPSR, 0x01000000)  returns 0x00 (0000ms, 0390ms total)
T07F4 000:459 JLINK_WriteReg(MSP, 0x20001000)  returns 0x00 (0000ms, 0390ms total)
T07F4 000:459 JLINK_WriteReg(PSP, 0x20001000)  returns 0x00 (0000ms, 0390ms total)
T07F4 000:459 JLINK_WriteReg(CFBP, 0x00000000)  returns 0x00 (0000ms, 0390ms total)
T07F4 000:459 JLINK_SetBPEx(Addr = 0x20000000, Type = 0xFFFFFFF2) -- CPU_ReadMem(2 bytes @ 0x20000000)Could not read memory location 0x20000000 when trying to set soft RAM BP  returns 0x00000000 (0003ms, 0393ms total)
T07F4 000:464 JLINK_WriteReg(R0, 0x00000001)  returns 0x00 (0000ms, 0393ms total)
T07F4 000:464 JLINK_WriteReg(R1, 0x017D7840)  returns 0x00 (0000ms, 0393ms total)
T07F4 000:464 JLINK_WriteReg(R2, 0x00000001)  returns 0x00 (0000ms, 0393ms total)
T07F4 000:464 JLINK_WriteReg(R3, 0x00000000)  returns 0x00 (0000ms, 0393ms total)
T07F4 000:464 JLINK_WriteReg(R4, 0x00000000)  returns 0x00 (0000ms, 0393ms total)
T07F4 000:464 JLINK_WriteReg(R5, 0x00000000)  returns 0x00 (0000ms, 0393ms total)
T07F4 000:464 JLINK_WriteReg(R6, 0x00000000)  returns 0x00 (0000ms, 0393ms total)
T07F4 000:464 JLINK_WriteReg(R7, 0x00000000)  returns 0x00 (0000ms, 0393ms total)
T07F4 000:464 JLINK_WriteReg(R8, 0x00000000)  returns 0x00 (0000ms, 0393ms total)
T07F4 000:464 JLINK_WriteReg(R9, 0x2000017C)  returns 0x00 (0000ms, 0393ms total)
T07F4 000:464 JLINK_WriteReg(R10, 0x00000000)  returns 0x00 (0000ms, 0393ms total)
T07F4 000:464 JLINK_WriteReg(R11, 0x00000000)  returns 0x00 (0000ms, 0393ms total)
T07F4 000:464 JLINK_WriteReg(R12, 0x00000000)  returns 0x00 (0000ms, 0393ms total)
T07F4 000:464 JLINK_WriteReg(R13 (SP), 0x20001000)  returns 0x00 (0000ms, 0393ms total)
T07F4 000:464 JLINK_WriteReg(R14, 0x20000001)  returns 0x00 (0000ms, 0393ms total)
T07F4 000:464 JLINK_WriteReg(R15 (PC), 0x20000082)  returns 0x00 (0000ms, 0393ms total)
T07F4 000:464 JLINK_WriteReg(XPSR, 0x01000000)  returns 0x00 (0000ms, 0393ms total)
T07F4 000:464 JLINK_WriteReg(MSP, 0x20001000)  returns 0x00 (0000ms, 0393ms total)
T07F4 000:464 JLINK_WriteReg(PSP, 0x20001000)  returns 0x00 (0000ms, 0393ms total)
T07F4 000:464 JLINK_WriteReg(CFBP, 0x00000000)  returns 0x00 (0000ms, 0393ms total)
T07F4 000:464 JLINK_SetBPEx(Addr = 0x20000000, Type = 0xFFFFFFF2) -- CPU_ReadMem(2 bytes @ 0x20000000)Could not read memory location 0x20000000 when trying to set soft RAM BP  returns 0x00000000 (0003ms, 0396ms total)
T07F4 003:219 JLINK_Close() -- CPU_WriteMem(4 bytes @ 0xE0002008) -- CPU_WriteMem(4 bytes @ 0xE000200C) -- CPU_WriteMem(4 bytes @ 0xE0002010) -- CPU_WriteMem(4 bytes @ 0xE0002014) -- CPU_WriteMem(4 bytes @ 0xE0002018) -- CPU_WriteMem(4 bytes @ 0xE000201C) -- CPU_ReadMem(4 bytes @ 0xE0001000) -- CPU_WriteMem(4 bytes @ 0xE0001000) -- CPU_WriteMem(4 bytes @ 0xE0001004) >0x0D TIF> >0x28 TIF> >0x0D TIF> >0x28 TIF> >0x0D TIF> >0x28 TIF> >0x0D TIF> >0x28 TIF> >0x0D TIF> >0x28 TIF> >0x0D TIF> >0x28 TIF>
 >0x0D TIF> >0x28 TIF> >0x0D TIF> >0x28 TIF> >0x0D TIF> >0x21 TIF> >0x0D TIF> >0x28 TIF> (0026ms, 0422ms total)
T07F4 003:219  (0026ms, 0422ms total)
T07F4 003:219 Closed (0026ms, 0422ms total)
